T37D0 1020:722 SEGGER J-Link V6.46 Log File (0000ms, 9426ms total)
T37D0 1020:722 DLL Compiled: May 23 2019 17:49:56 (0000ms, 9426ms total)
T37D0 1020:722 Logging started @ 2019-10-07 11:49 (0000ms, 9426ms total)
T37D0 1020:722 JLINK_SetWarnOutHandler(...) (0000ms, 9426ms total)
T37D0 1020:722 JLINK_OpenEx(...)
Firmware: J-Link ARM V8 compiled Nov 28 2014 13:44:46
Hardware: V8.00
S/N: 16864320
Feature(s): RDI,FlashDL,FlashBP,JFlash,GDB
TELNET listener socket opened on port 19021Device "STM32F030K6" selected.WEBSRV 
Starting webserver (0025ms, 9451ms total)
T37D0 1020:722 WEBSRV Webserver running on local port 19080 (0025ms, 9451ms total)
T37D0 1020:722   returns O.K. (0025ms, 9451ms total)
T37D0 1020:747 JLINK_GetEmuCaps()  returns 0xB9FF7BBF (0000ms, 9451ms total)
T37D0 1020:748 JLINK_TIF_GetAvailable(...) (0000ms, 9451ms total)
T37D0 1020:748 JLINK_SetErrorOutHandler(...) (0000ms, 9451ms total)
T37D0 1020:748 JLINK_ExecCommand("ProjectFile = "C:\Users\ASiDesigner\Desktop\My Little Friend\MCU\MDK-ARM\JLinkSettings.ini"", ...). Device "STM32F030K6" selected.  returns 0x00 (0002ms, 9453ms total)
T37D0 1020:750 JLINK_ExecCommand("Device = STM32F030K6Tx", ...). Device "STM32F030K6" selected.  returns 0x00 (0002ms, 9455ms total)
T37D0 1020:752 JLINK_ExecCommand("DisableConnectionTimeout", ...).   returns 0x01 (0000ms, 9455ms total)
T37D0 1020:752 JLINK_GetHardwareVersion()  returns 0x13880 (0000ms, 9455ms total)
T37D0 1020:752 JLINK_GetDLLVersion()  returns 64600 (0000ms, 9455ms total)
T37D0 1020:752 JLINK_GetFirmwareString(...) (0000ms, 9455ms total)
T37D0 1020:752 JLINK_GetDLLVersion()  returns 64600 (0000ms, 9455ms total)
T37D0 1020:752 JLINK_GetCompileDateTime() (0000ms, 9455ms total)
T37D0 1020:752 JLINK_GetFirmwareString(...) (0000ms, 9455ms total)
T37D0 1020:752 JLINK_GetHardwareVersion()  returns 0x13880 (0000ms, 9455ms total)
T37D0 1020:752 JLINK_TIF_Select(JLINKARM_TIF_SWD)  returns 0x00 (0001ms, 9456ms total)
T37D0 1020:753 JLINK_SetSpeed(5000) (0000ms, 9456ms total)
T37D0 1020:753 JLINK_GetId() >0x10B TIF>Found SW-DP with ID 0x0BB11477 >0x0D TIF> >0x28 TIF> >0x0D TIF> >0x28 TIF> >0x0D TIF> >0x28 TIF> >0x0D TIF> >0x28 TIF> >0x0D TIF> >0x21 TIF> >0x0D TIF> >0x28 TIF> >0x0D TIF> >0x28 TIF> >0x0D TIF> >0x28 TIF> >0x0D TIF> >0x21 TIF> >0x0D TIF> >0x21 TIF> >0x0D TIF> >0x28 TIF> >0x0D TIF> >0x21 TIF> >0x0D TIF> >0x21 TIF> >0x0D TIF> >0x28 TIF> >0x0D TIF> >0x21 TIF> >0x0D TIF> >0x21 TIF> >0x0D TIF> >0x28 TIF> >0x0D TIF> >0x28 TIF> >0x0D TIF> >0x28 TIF> >0x0D TIF>
 >0x21 TIF> >0x0D TIF> >0x21 TIF> >0x0D TIF> >0x28 TIF> >0x0D TIF> >0x28 TIF> >0x0D TIF> >0x28 TIF> >0x0D TIF> >0x21 TIF> >0x0D TIF> >0x21 TIF> >0x0D TIF> >0x28 TIF> >0x0D TIF> >0x21 TIF> >0x0D TIF> >0x21 TIF> >0x0D TIF> >0x28 TIF> >0x0D TIF> >0x21 TIF> >0x0D TIF> >0x21 TIF> >0x0D TIF> >0x28 TIF> >0x0D TIF> >0x21 TIF> >0x0D TIF> >0x21 TIF> >0x0D TIF> >0x28 TIF> >0x0D TIF> >0x21 TIF> >0x0D TIF> >0x21 TIF> >0x0D TIF> >0x28 TIF> >0x0D TIF> >0x21 TIF> >0x0D TIF> >0x21 TIF> >0x10B TIF>
Found SW-DP with ID 0x0BB11477 >0x0D TIF> >0x28 TIF> >0x0D TIF> >0x28 TIF> >0x0D TIF> >0x28 TIF> >0x0D TIF> >0x28 TIF> >0x0D TIF> >0x21 TIF> >0x0D TIF> >0x28 TIF>Scanning AP map to find all available APs >0x0D TIF> >0x28 TIF> >0x0D TIF> >0x21 TIF> >0x0D TIF> >0x21 TIF> >0x0D TIF> >0x28 TIF> >0x0D TIF> >0x21 TIF> >0x0D TIF> >0x21 TIF>AP[1]: Stopped AP scan as end of AP map has been reachedAP[0]: AHB-AP (IDR: 0x04770021)Iterating through AP map to find AHB-AP to use >0x42 TIF> >0x28 TIF> >0x0D TIF>
 >0x28 TIF> >0x0D TIF> >0x21 TIF> >0x0D TIF> >0x21 TIF> >0x42 TIF> >0x28 TIF> >0x0D TIF> >0x28 TIF> >0x0D TIF> >0x28 TIF> >0x0D TIF> >0x21 TIF> >0x0D TIF> >0x21 TIF>AP[0]: Core foundAP[0]: AHB-AP ROM base: 0xE00FF000 >0x0D TIF> >0x28 TIF> >0x0D TIF> >0x28 TIF> >0x0D TIF> >0x28 TIF> >0x0D TIF> >0x21 TIF> >0x0D TIF> >0x21 TIF>CPUID register: 0x410CC200. Implementer code: 0x41 (ARM)Found Cortex-M0 r0p0, Little endian. -- Max. mem block: 0x00002408 -- CPU_ReadMem(4 bytes @ 0xE000EDF0)
 -- CPU_WriteMem(4 bytes @ 0xE000EDF0) -- CPU_ReadMem(4 bytes @ 0xE0002000)FPUnit: 4 code (BP) slots and 0 literal slots -- CPU_ReadMem(4 bytes @ 0xE000EDFC) -- CPU_WriteMem(4 bytes @ 0xE000EDFC) -- CPU_ReadMem(4 bytes @ 0xE0001000) -- CPU_WriteMem(4 bytes @ 0xE0001000)CoreSight components:ROMTbl[0] @ E00FF000 -- CPU_ReadMem(16 bytes @ 0xE00FF000) -- CPU_ReadMem(16 bytes @ 0xE000EFF0) -- CPU_ReadMem(16 bytes @ 0xE000EFE0)ROMTbl[0][0]: E000E000, CID: B105E00D, PID: 000BB008 SCS
 -- CPU_ReadMem(16 bytes @ 0xE0001FF0) -- CPU_ReadMem(16 bytes @ 0xE0001FE0)ROMTbl[0][1]: E0001000, CID: B105E00D, PID: 000BB00A DWT -- CPU_ReadMem(16 bytes @ 0xE0002FF0) -- CPU_ReadMem(16 bytes @ 0xE0002FE0)ROMTbl[0][2]: E0002000, CID: B105E00D, PID: 000BB00B FPB >0x0D TIF> >0x21 TIF>  returns 0x0BB11477 (0182ms, 9638ms total)
T37D0 1020:935 JLINK_GetDLLVersion()  returns 64600 (0000ms, 9638ms total)
T37D0 1020:935 JLINK_CORE_GetFound()  returns 0x60000FF (0000ms, 9638ms total)
T37D0 1020:935 JLINK_GetDebugInfo(0x100 = JLINKARM_ROM_TABLE_ADDR_INDEX) -- Value=0xE00FF000  returns 0x00 (0000ms, 9638ms total)
T37D0 1020:935 JLINK_GetDebugInfo(0x100 = JLINKARM_ROM_TABLE_ADDR_INDEX) -- Value=0xE00FF000  returns 0x00 (0000ms, 9638ms total)
T37D0 1020:935 JLINK_GetDebugInfo(0x101 = JLINKARM_DEBUG_INFO_ETM_ADDR_INDEX) -- Value=0x00000000  returns 0x00 (0000ms, 9638ms total)
T37D0 1020:935 JLINK_ReadMemEx(0xE0041FF0, 0x0010 Bytes, ..., Flags = 0x02000004) -- CPU_ReadMem(16 bytes @ 0xE0041FF0) - Data: 00 00 00 00 00 00 00 00 00 00 00 00 00 00 00 00  returns 0x10 (0001ms, 9639ms total)
T37D0 1020:936 JLINK_GetDebugInfo(0x102 = JLINKARM_DEBUG_INFO_MTB_ADDR_INDEX) -- Value=0x00000000  returns 0x00 (0000ms, 9639ms total)
T37D0 1020:936 JLINK_GetDebugInfo(0x103 = JLINKARM_DEBUG_INFO_TPIU_ADDR_INDEX) -- Value=0x00000000  returns 0x00 (0000ms, 9639ms total)
T37D0 1020:936 JLINK_ReadMemEx(0xE0040FF0, 0x0010 Bytes, ..., Flags = 0x02000004) -- CPU_ReadMem(16 bytes @ 0xE0040FF0) - Data: 00 00 00 00 00 00 00 00 00 00 00 00 00 00 00 00  returns 0x10 (0001ms, 9640ms total)
T37D0 1020:937 JLINK_GetDebugInfo(0x104 = JLINKARM_DEBUG_INFO_ITM_ADDR_INDEX) -- Value=0xE0000000  returns 0x00 (0000ms, 9640ms total)
T37D0 1020:937 JLINK_GetDebugInfo(0x105 = JLINKARM_DEBUG_INFO_DWT_ADDR_INDEX) -- Value=0xE0001000  returns 0x00 (0000ms, 9640ms total)
T37D0 1020:937 JLINK_GetDebugInfo(0x106 = JLINKARM_DEBUG_INFO_FPB_ADDR_INDEX) -- Value=0xE0002000  returns 0x00 (0000ms, 9640ms total)
T37D0 1020:937 JLINK_GetDebugInfo(0x107 = JLINKARM_DEBUG_INFO_NVIC_ADDR_INDEX) -- Value=0xE000E000  returns 0x00 (0000ms, 9640ms total)
T37D0 1020:937 JLINK_GetDebugInfo(0x10C = JLINKARM_DEBUG_INFO_DBG_ADDR_INDEX) -- Value=0xE000EDF0  returns 0x00 (0000ms, 9640ms total)
T37D0 1020:937 JLINK_GetDebugInfo(0x01 = Unknown) -- Value=0x00000000  returns 0x00 (0000ms, 9640ms total)
T37D0 1020:937 JLINK_ReadMemU32(0xE000ED00, 0x0001 Items, ...) -- CPU_ReadMem(4 bytes @ 0xE000ED00) - Data: 00 C2 0C 41  returns 1 (0001ms, 9641ms total)
T37D0 1020:938 JLINK_GetDebugInfo(0x10F = JLINKARM_DEBUG_INFO_HAS_CORTEX_M_SECURITY_EXT_INDEX) -- Value=0x00000000  returns 0x00 (0000ms, 9641ms total)
T37D0 1020:938 JLINK_SetResetType(JLINKARM_CM3_RESET_TYPE_NORMAL)  returns JLINKARM_CM3_RESET_TYPE_NORMAL (0000ms, 9641ms total)
T37D0 1020:938 JLINK_Reset() -- CPU is running -- CPU_WriteMem(4 bytes @ 0xE000EDF0) -- CPU is running -- CPU_WriteMem(4 bytes @ 0xE000EDFC)Reset: Halt core after reset via DEMCR.VC_CORERESET. >0x35 TIF>Reset: Reset device via AIRCR.SYSRESETREQ. -- CPU is running -- CPU_WriteMem(4 bytes @ 0xE000ED0C) >0x0D TIF> >0x28 TIF> -- CPU_ReadMem(4 bytes @ 0xE000EDF0) -- CPU_ReadMem(4 bytes @ 0xE000EDF0) -- CPU is running -- CPU_WriteMem(4 bytes @ 0xE000EDF0) -- CPU is running -- CPU_WriteMem(4 bytes @ 0xE000EDFC)
 -- CPU_ReadMem(4 bytes @ 0xE000EDF0) -- CPU_WriteMem(4 bytes @ 0xE0002000) -- CPU_ReadMem(4 bytes @ 0xE000EDFC) -- CPU_ReadMem(4 bytes @ 0xE0001000) -- CPU_WriteMem(4 bytes @ 0xE0001000) (0071ms, 9712ms total)
T37D0 1021:010 JLINK_ReadReg(R15 (PC))  returns 0x080000C4 (0000ms, 9712ms total)
T37D0 1021:010 JLINK_ReadReg(XPSR)  returns 0xC1000000 (0000ms, 9712ms total)
T37D0 1021:010 JLINK_Halt()  returns 0x00 (0000ms, 9712ms total)
T37D0 1021:010 JLINK_ReadMemU32(0xE000EDF0, 0x0001 Items, ...) -- CPU_ReadMem(4 bytes @ 0xE000EDF0) - Data: 03 00 03 00  returns 1 (0000ms, 9712ms total)
T37D0 1021:011 JLINK_WriteU32(0xE000EDF0, 0xA05F0003) -- CPU_WriteMem(4 bytes @ 0xE000EDF0)  returns 0 (0000ms, 9712ms total)
T37D0 1021:011 JLINK_WriteU32(0xE000EDFC, 0x01000000) -- CPU_WriteMem(4 bytes @ 0xE000EDFC)  returns 0 (0001ms, 9713ms total)
T37D0 1021:012 JLINK_GetHWStatus(...)  returns 0x00 (0001ms, 9714ms total)
T37D0 1021:013 JLINK_GetNumBPUnits(Type = 0xFFFFFF00)  returns 0x04 (0000ms, 9714ms total)
T37D0 1021:013 JLINK_GetNumBPUnits(Type = 0xF0)  returns 0x2000 (0000ms, 9714ms total)
T37D0 1021:013 JLINK_GetNumWPUnits()  returns 0x02 (0000ms, 9714ms total)
T37D0 1021:013 JLINK_GetSpeed()  returns 0xFA0 (0000ms, 9714ms total)
T37D0 1021:013 JLINK_ReadMemU32(0xE000E004, 0x0001 Items, ...) -- CPU_ReadMem(4 bytes @ 0xE000E004) - Data: 00 00 00 00  returns 1 (0001ms, 9715ms total)
T37D0 1021:014 JLINK_ReadReg(R15 (PC))  returns 0x080000C4 (0000ms, 9715ms total)
T37D0 1021:014 JLINK_ReadReg(XPSR)  returns 0xC1000000 (0000ms, 9715ms total)
T37D0 1021:106 JLINK_SetResetType(JLINKARM_CM3_RESET_TYPE_NORMAL)  returns JLINKARM_CM3_RESET_TYPE_NORMAL (0000ms, 9715ms total)
T37D0 1021:106 JLINK_Reset() -- CPU_WriteMem(4 bytes @ 0xE000EDF0) -- CPU_WriteMem(4 bytes @ 0xE000EDFC)Reset: Halt core after reset via DEMCR.VC_CORERESET. >0x35 TIF>Reset: Reset device via AIRCR.SYSRESETREQ. -- CPU_WriteMem(4 bytes @ 0xE000ED0C) >0x0D TIF> >0x28 TIF> -- CPU_ReadMem(4 bytes @ 0xE000EDF0) -- CPU_ReadMem(4 bytes @ 0xE000EDF0) -- CPU_WriteMem(4 bytes @ 0xE000EDF0) -- CPU_WriteMem(4 bytes @ 0xE000EDFC) -- CPU_ReadMem(4 bytes @ 0xE000EDF0) -- CPU_WriteMem(4 bytes @ 0xE0002000)
 -- CPU_ReadMem(4 bytes @ 0xE000EDFC) -- CPU_ReadMem(4 bytes @ 0xE0001000) -- CPU_WriteMem(4 bytes @ 0xE0001000) (0071ms, 9786ms total)
T37D0 1021:177 JLINK_ReadReg(R15 (PC))  returns 0x080000C4 (0000ms, 9786ms total)
T37D0 1021:177 JLINK_ReadReg(XPSR)  returns 0xC1000000 (0000ms, 9786ms total)
T37D0 1021:178 JLINK_ReadMemEx(0x080000C4, 0x003C Bytes, ..., Flags = 0x02000000) -- CPU_ReadMem(64 bytes @ 0x080000C0) -- Updating C cache (64 bytes @ 0x080000C0) -- Read from C cache (60 bytes @ 0x080000C4) - Data: 04 48 80 47 04 48 00 47 FE E7 FE E7 FE E7 FE E7 ...  returns 0x3C (0001ms, 9787ms total)
T37D0 1021:179 JLINK_ReadMemEx(0x080000C4, 0x0002 Bytes, ..., Flags = 0x02000000) -- Read from C cache (2 bytes @ 0x080000C4) - Data: 04 48  returns 0x02 (0000ms, 9787ms total)
T37D0 1021:179 JLINK_ReadMemEx(0x080000C6, 0x0002 Bytes, ..., Flags = 0x02000000) -- Read from C cache (2 bytes @ 0x080000C6) - Data: 80 47  returns 0x02 (0000ms, 9787ms total)
T37D0 1021:323 JLINK_ReadMemEx(0x40012400, 0x0014 Bytes, ..., Flags = 0x02000004) -- CPU_ReadMem(20 bytes @ 0x40012400) - Data: 00 00 00 00 00 00 00 00 00 00 00 00 00 00 00 00 ...  returns 0x14 (0000ms, 9787ms total)
T37D0 1021:323 JLINK_ReadMemEx(0x40012414, 0x0004 Bytes, ..., Flags = 0x02000004) -- CPU_ReadMem(4 bytes @ 0x40012414) - Data: 00 00 00 00  returns 0x04 (0001ms, 9788ms total)
T37D0 1021:324 JLINK_ReadMemEx(0x40012420, 0x0004 Bytes, ..., Flags = 0x02000004) -- CPU_ReadMem(4 bytes @ 0x40012420) - Data: 00 00 00 00  returns 0x04 (0001ms, 9789ms total)
T37D0 1021:325 JLINK_ReadMemEx(0x40012428, 0x0004 Bytes, ..., Flags = 0x02000004) -- CPU_ReadMem(4 bytes @ 0x40012428) - Data: 00 00 00 00  returns 0x04 (0000ms, 9789ms total)
T37D0 1021:325 JLINK_ReadMemEx(0x40012440, 0x0004 Bytes, ..., Flags = 0x02000004) -- CPU_ReadMem(4 bytes @ 0x40012440) - Data: 00 00 00 00  returns 0x04 (0001ms, 9790ms total)
T37D0 1021:326 JLINK_ReadMemEx(0x40012708, 0x0004 Bytes, ..., Flags = 0x02000004) -- CPU_ReadMem(4 bytes @ 0x40012708) - Data: 00 00 00 00  returns 0x04 (0000ms, 9790ms total)
T37D0 1021:362 JLINK_ReadMemEx(0x40000400, 0x0010 Bytes, ..., Flags = 0x02000004) -- CPU_ReadMem(16 bytes @ 0x40000400) - Data: 00 00 00 00 00 00 00 00 00 00 00 00 00 00 00 00  returns 0x10 (0000ms, 9790ms total)
T37D0 1021:362 JLINK_ReadMemEx(0x40000410, 0x0004 Bytes, ..., Flags = 0x02000004) -- CPU_ReadMem(4 bytes @ 0x40000410) - Data: 00 00 00 00  returns 0x04 (0001ms, 9791ms total)
T37D0 1021:363 JLINK_ReadMemEx(0x40000418, 0x0014 Bytes, ..., Flags = 0x02000004) -- CPU_ReadMem(20 bytes @ 0x40000418) - Data: 00 00 00 00 00 00 00 00 00 00 00 00 00 00 00 00 ...  returns 0x14 (0001ms, 9792ms total)
T37D0 1021:364 JLINK_ReadMemEx(0x4000042C, 0x0004 Bytes, ..., Flags = 0x02000004) -- CPU_ReadMem(4 bytes @ 0x4000042C) - Data: 00 00 00 00  returns 0x04 (0000ms, 9792ms total)
T37D0 1021:364 JLINK_ReadMemEx(0x40000434, 0x000C Bytes, ..., Flags = 0x02000004) -- CPU_ReadMem(12 bytes @ 0x40000434) - Data: 00 00 00 00 00 00 00 00 00 00 00 00  returns 0x0C (0001ms, 9793ms total)
T37D0 1021:365 JLINK_ReadMemEx(0x40000440, 0x0004 Bytes, ..., Flags = 0x02000004) -- CPU_ReadMem(4 bytes @ 0x40000440) - Data: 00 00 00 00  returns 0x04 (0000ms, 9793ms total)
T37D0 1021:365 JLINK_ReadMemEx(0x40000448, 0x0004 Bytes, ..., Flags = 0x02000004) -- CPU_ReadMem(4 bytes @ 0x40000448) - Data: 00 00 00 00  returns 0x04 (0001ms, 9794ms total)
T37D0 1021:366 JLINK_ReadMemEx(0x4000044C, 0x0004 Bytes, ..., Flags = 0x02000004) -- CPU_ReadMem(4 bytes @ 0x4000044C) - Data: 00 00 00 00  returns 0x04 (0000ms, 9794ms total)
T37D0 1022:516 JLINK_ReadMemEx(0x080000C4, 0x003C Bytes, ..., Flags = 0x02000000) -- Read from C cache (60 bytes @ 0x080000C4) - Data: 04 48 80 47 04 48 00 47 FE E7 FE E7 FE E7 FE E7 ...  returns 0x3C (0000ms, 9794ms total)
T37D0 1022:516 JLINK_ReadMemEx(0x080000C4, 0x0002 Bytes, ..., Flags = 0x02000000) -- Read from C cache (2 bytes @ 0x080000C4) - Data: 04 48  returns 0x02 (0000ms, 9794ms total)
T37D0 1022:516 JLINK_ReadMemEx(0x080000C6, 0x0002 Bytes, ..., Flags = 0x02000000) -- Read from C cache (2 bytes @ 0x080000C6) - Data: 80 47  returns 0x02 (0000ms, 9794ms total)
T37D0 1022:516 JLINK_ReadMemEx(0x080000C6, 0x0002 Bytes, ..., Flags = 0x02000000) -- Read from C cache (2 bytes @ 0x080000C6) - Data: 80 47  returns 0x02 (0000ms, 9794ms total)
T37D0 1022:516 JLINK_ReadMemEx(0x080000C8, 0x003C Bytes, ..., Flags = 0x02000000) -- CPU_ReadMem(64 bytes @ 0x08000100) -- Updating C cache (64 bytes @ 0x08000100) -- Read from C cache (60 bytes @ 0x080000C8) - Data: 04 48 00 47 FE E7 FE E7 FE E7 FE E7 FE E7 FE E7 ...  returns 0x3C (0002ms, 9796ms total)
T37D0 1022:518 JLINK_ReadMemEx(0x080000C8, 0x0002 Bytes, ..., Flags = 0x02000000) -- Read from C cache (2 bytes @ 0x080000C8) - Data: 04 48  returns 0x02 (0000ms, 9796ms total)
T37D0 1022:747 JLINK_ReadReg(R0)  returns 0xFFFFFFFF (0001ms, 9797ms total)
T37D0 1022:748 JLINK_ReadReg(R1)  returns 0xFFFFFFFF (0000ms, 9797ms total)
T37D0 1022:748 JLINK_ReadReg(R2)  returns 0xFFFFFFFF (0000ms, 9797ms total)
T37D0 1022:748 JLINK_ReadReg(R3)  returns 0xFFFFFFFF (0000ms, 9797ms total)
T37D0 1022:748 JLINK_ReadReg(R4)  returns 0xFFFFFFFF (0000ms, 9797ms total)
T37D0 1022:748 JLINK_ReadReg(R5)  returns 0xFFFFFFFF (0000ms, 9797ms total)
T37D0 1022:748 JLINK_ReadReg(R6)  returns 0xFFFFFFFF (0000ms, 9797ms total)
T37D0 1022:748 JLINK_ReadReg(R7)  returns 0xFFFFFFFF (0000ms, 9797ms total)
T37D0 1022:748 JLINK_ReadReg(R8)  returns 0xFFFFFFFF (0000ms, 9797ms total)
T37D0 1022:748 JLINK_ReadReg(R9)  returns 0xFFFFFFFF (0000ms, 9797ms total)
T37D0 1022:748 JLINK_ReadReg(R10)  returns 0xFFFFFFFF (0000ms, 9797ms total)
T37D0 1022:748 JLINK_ReadReg(R11)  returns 0xFFFFFFFF (0000ms, 9797ms total)
T37D0 1022:748 JLINK_ReadReg(R12)  returns 0xFFFFFFFF (0000ms, 9797ms total)
T37D0 1022:748 JLINK_ReadReg(R13 (SP))  returns 0x20000690 (0000ms, 9797ms total)
T37D0 1022:748 JLINK_ReadReg(R14)  returns 0xFFFFFFFF (0000ms, 9797ms total)
T37D0 1022:748 JLINK_ReadReg(R15 (PC))  returns 0x080000C4 (0000ms, 9797ms total)
T37D0 1022:748 JLINK_ReadReg(XPSR)  returns 0xC1000000 (0000ms, 9797ms total)
T37D0 1022:748 JLINK_ReadReg(MSP)  returns 0x20000690 (0000ms, 9797ms total)
T37D0 1022:748 JLINK_ReadReg(PSP)  returns 0xFFFFFFFC (0000ms, 9797ms total)
T37D0 1022:748 JLINK_ReadReg(CFBP)  returns 0x00000000 (0000ms, 9797ms total)
T37D0 1022:771 JLINK_ReadMemEx(0x2000021C, 0x0020 Bytes, ..., Flags = 0x02000000) -- CPU_ReadMem(64 bytes @ 0x20000200) -- Updating C cache (64 bytes @ 0x20000200) -- Read from C cache (32 bytes @ 0x2000021C) - Data: 00 00 00 00 00 00 00 00 00 00 00 00 00 00 00 00 ...  returns 0x20 (0001ms, 9798ms total)
T31AC 1022:814 JLINK_ReadMemEx(0x080000C4, 0x0002 Bytes, ..., Flags = 0x02000000) -- Read from C cache (2 bytes @ 0x080000C4) - Data: 04 48  returns 0x02 (0000ms, 9798ms total)
T31AC 1022:814 JLINK_SetBPEx(Addr = 0x08004E5A, Type = 0xFFFFFFF2)  returns 0x00000001 (0000ms, 9798ms total)
T31AC 1022:814 JLINK_SetBPEx(Addr = 0x0800501E, Type = 0xFFFFFFF2)  returns 0x00000002 (0000ms, 9798ms total)
T31AC 1022:814 JLINK_Go() -- CPU_WriteMem(4 bytes @ 0xE0002000) -- CPU_WriteMem(4 bytes @ 0xE0002000) -- CPU_ReadMem(4 bytes @ 0xE0001000) -- CPU_WriteMem(4 bytes @ 0xE0001000) -- CPU_WriteMem(4 bytes @ 0xE0002008) -- CPU_WriteMem(4 bytes @ 0xE000200C) -- CPU_WriteMem(4 bytes @ 0xE0002010) -- CPU_WriteMem(4 bytes @ 0xE0002014) -- CPU_WriteMem(4 bytes @ 0xE0001004) (0005ms, 9803ms total)
T31AC 1022:920 JLINK_IsHalted()  returns TRUE (0002ms, 9805ms total)
T31AC 1022:922 JLINK_Halt()  returns 0x00 (0000ms, 9803ms total)
T31AC 1022:922 JLINK_IsHalted()  returns TRUE (0000ms, 9803ms total)
T31AC 1022:922 JLINK_IsHalted()  returns TRUE (0000ms, 9803ms total)
T31AC 1022:922 JLINK_IsHalted()  returns TRUE (0000ms, 9803ms total)
T31AC 1022:922 JLINK_ReadReg(R15 (PC))  returns 0x08004E5A (0000ms, 9803ms total)
T31AC 1022:922 JLINK_ReadReg(XPSR)  returns 0x61000000 (0000ms, 9803ms total)
T31AC 1022:922 JLINK_ClrBPEx(BPHandle = 0x00000001)  returns 0x00 (0000ms, 9803ms total)
T31AC 1022:922 JLINK_ClrBPEx(BPHandle = 0x00000002)  returns 0x00 (0000ms, 9803ms total)
T31AC 1022:922 JLINK_ReadMemU32(0xE000ED30, 0x0001 Items, ...) -- CPU_ReadMem(4 bytes @ 0xE000ED30) - Data: 03 00 00 00  returns 1 (0001ms, 9804ms total)
T31AC 1022:923 JLINK_ReadMemU32(0xE0001028, 0x0001 Items, ...) -- CPU_ReadMem(4 bytes @ 0xE0001028) - Data: 00 00 00 00  returns 1 (0001ms, 9805ms total)
T31AC 1022:924 JLINK_ReadMemU32(0xE0001038, 0x0001 Items, ...) -- CPU_ReadMem(4 bytes @ 0xE0001038) - Data: 00 00 00 00  returns 1 (0000ms, 9805ms total)
T31AC 1022:924 JLINK_ReadReg(R0)  returns 0x08004E5B (0000ms, 9805ms total)
T31AC 1022:924 JLINK_ReadReg(R1)  returns 0x20000690 (0000ms, 9805ms total)
T31AC 1022:924 JLINK_ReadReg(R2)  returns 0x00000000 (0000ms, 9805ms total)
T31AC 1022:924 JLINK_ReadReg(R3)  returns 0x08004ABD (0000ms, 9805ms total)
T31AC 1022:924 JLINK_ReadReg(R4)  returns 0x08005430 (0001ms, 9806ms total)
T31AC 1022:925 JLINK_ReadReg(R5)  returns 0x00000001 (0000ms, 9806ms total)
T31AC 1022:925 JLINK_ReadReg(R6)  returns 0x08005430 (0000ms, 9806ms total)
T31AC 1022:925 JLINK_ReadReg(R7)  returns 0xFFFFFFFF (0000ms, 9806ms total)
T31AC 1022:925 JLINK_ReadReg(R8)  returns 0xFFFFFFFF (0000ms, 9806ms total)
T31AC 1022:925 JLINK_ReadReg(R9)  returns 0xFFFFFFFF (0000ms, 9806ms total)
T31AC 1022:925 JLINK_ReadReg(R10)  returns 0xFFFFFFFF (0000ms, 9806ms total)
T31AC 1022:925 JLINK_ReadReg(R11)  returns 0xFFFFFFFF (0000ms, 9806ms total)
T31AC 1022:925 JLINK_ReadReg(R12)  returns 0xFFFFFFFF (0000ms, 9806ms total)
T31AC 1022:925 JLINK_ReadReg(R13 (SP))  returns 0x20000690 (0000ms, 9806ms total)
T31AC 1022:925 JLINK_ReadReg(R14)  returns 0x080004A5 (0000ms, 9806ms total)
T31AC 1022:925 JLINK_ReadReg(R15 (PC))  returns 0x08004E5A (0000ms, 9806ms total)
T31AC 1022:925 JLINK_ReadReg(XPSR)  returns 0x61000000 (0000ms, 9806ms total)
T31AC 1022:925 JLINK_ReadReg(MSP)  returns 0x20000690 (0000ms, 9806ms total)
T31AC 1022:925 JLINK_ReadReg(PSP)  returns 0xFFFFFFFC (0000ms, 9806ms total)
T31AC 1022:925 JLINK_ReadReg(CFBP)  returns 0x00000000 (0000ms, 9806ms total)
T37D0 1022:925 JLINK_ReadMemEx(0x2000067C, 0x0014 Bytes, ..., Flags = 0x02000000) -- CPU_ReadMem(128 bytes @ 0x20000640) -- Updating C cache (128 bytes @ 0x20000640) -- Read from C cache (20 bytes @ 0x2000067C) - Data: 00 00 00 00 00 00 00 00 00 00 00 00 00 00 00 00 ...  returns 0x14 (0002ms, 9808ms total)
T37D0 1022:927 JLINK_ReadMemEx(0x20000648, 0x0020 Bytes, ..., Flags = 0x02000000) -- Read from C cache (32 bytes @ 0x20000648) - Data: 00 00 00 00 00 00 00 00 00 00 00 00 00 00 00 00 ...  returns 0x20 (0000ms, 9808ms total)
T37D0 1022:927 JLINK_ReadMemEx(0x2000067C, 0x0014 Bytes, ..., Flags = 0x02000000) -- Read from C cache (20 bytes @ 0x2000067C) - Data: 00 00 00 00 00 00 00 00 00 00 00 00 00 00 00 00 ...  returns 0x14 (0000ms, 9808ms total)
T37D0 1022:927 JLINK_ReadMemEx(0x20000648, 0x0020 Bytes, ..., Flags = 0x02000000) -- Read from C cache (32 bytes @ 0x20000648) - Data: 00 00 00 00 00 00 00 00 00 00 00 00 00 00 00 00 ...  returns 0x20 (0000ms, 9808ms total)
T37D0 1022:927 JLINK_ReadMemEx(0x2000021C, 0x0020 Bytes, ..., Flags = 0x02000000) -- CPU_ReadMem(64 bytes @ 0x20000200) -- Updating C cache (64 bytes @ 0x20000200) -- Read from C cache (32 bytes @ 0x2000021C) - Data: 00 00 00 00 00 00 00 00 00 00 00 00 00 00 00 00 ...  returns 0x20 (0001ms, 9809ms total)
T37D0 1022:929 JLINK_ReadMemEx(0x40012400, 0x0014 Bytes, ..., Flags = 0x02000004) -- CPU_ReadMem(20 bytes @ 0x40012400) - Data: 00 00 00 00 00 00 00 00 00 00 00 00 00 00 00 00 ...  returns 0x14 (0001ms, 9810ms total)
T37D0 1022:930 JLINK_ReadMemEx(0x40012414, 0x0004 Bytes, ..., Flags = 0x02000004) -- CPU_ReadMem(4 bytes @ 0x40012414) - Data: 00 00 00 00  returns 0x04 (0001ms, 9811ms total)
T37D0 1022:931 JLINK_ReadMemEx(0x40012420, 0x0004 Bytes, ..., Flags = 0x02000004) -- CPU_ReadMem(4 bytes @ 0x40012420) - Data: 00 00 00 00  returns 0x04 (0000ms, 9811ms total)
T37D0 1022:931 JLINK_ReadMemEx(0x40012428, 0x0004 Bytes, ..., Flags = 0x02000004) -- CPU_ReadMem(4 bytes @ 0x40012428) - Data: 00 00 00 00  returns 0x04 (0001ms, 9812ms total)
T37D0 1022:932 JLINK_ReadMemEx(0x40012440, 0x0004 Bytes, ..., Flags = 0x02000004) -- CPU_ReadMem(4 bytes @ 0x40012440) - Data: 00 00 00 00  returns 0x04 (0001ms, 9813ms total)
T37D0 1022:933 JLINK_ReadMemEx(0x40012708, 0x0004 Bytes, ..., Flags = 0x02000004) -- CPU_ReadMem(4 bytes @ 0x40012708) - Data: 00 00 00 00  returns 0x04 (0000ms, 9813ms total)
T37D0 1022:933 JLINK_ReadMemEx(0x40000400, 0x0010 Bytes, ..., Flags = 0x02000004) -- CPU_ReadMem(16 bytes @ 0x40000400) - Data: 00 00 00 00 00 00 00 00 00 00 00 00 00 00 00 00  returns 0x10 (0001ms, 9814ms total)
T37D0 1022:934 JLINK_ReadMemEx(0x40000410, 0x0004 Bytes, ..., Flags = 0x02000004) -- CPU_ReadMem(4 bytes @ 0x40000410) - Data: 00 00 00 00  returns 0x04 (0001ms, 9815ms total)
T37D0 1022:935 JLINK_ReadMemEx(0x40000418, 0x0014 Bytes, ..., Flags = 0x02000004) -- CPU_ReadMem(20 bytes @ 0x40000418) - Data: 00 00 00 00 00 00 00 00 00 00 00 00 00 00 00 00 ...  returns 0x14 (0001ms, 9816ms total)
T37D0 1022:936 JLINK_ReadMemEx(0x4000042C, 0x0004 Bytes, ..., Flags = 0x02000004) -- CPU_ReadMem(4 bytes @ 0x4000042C) - Data: 00 00 00 00  returns 0x04 (0000ms, 9816ms total)
T37D0 1022:936 JLINK_ReadMemEx(0x40000434, 0x000C Bytes, ..., Flags = 0x02000004) -- CPU_ReadMem(12 bytes @ 0x40000434) - Data: 00 00 00 00 00 00 00 00 00 00 00 00  returns 0x0C (0001ms, 9817ms total)
T37D0 1022:937 JLINK_ReadMemEx(0x40000440, 0x0004 Bytes, ..., Flags = 0x02000004) -- CPU_ReadMem(4 bytes @ 0x40000440) - Data: 00 00 00 00  returns 0x04 (0000ms, 9817ms total)
T37D0 1022:937 JLINK_ReadMemEx(0x40000448, 0x0004 Bytes, ..., Flags = 0x02000004) -- CPU_ReadMem(4 bytes @ 0x40000448) - Data: 00 00 00 00  returns 0x04 (0001ms, 9818ms total)
T37D0 1022:938 JLINK_ReadMemEx(0x4000044C, 0x0004 Bytes, ..., Flags = 0x02000004) -- CPU_ReadMem(4 bytes @ 0x4000044C) - Data: 00 00 00 00  returns 0x04 (0001ms, 9819ms total)
T31AC 1025:466 JLINK_ReadMemEx(0x08004E5A, 0x0002 Bytes, ..., Flags = 0x02000000) -- CPU_ReadMem(64 bytes @ 0x08004E40) -- Updating C cache (64 bytes @ 0x08004E40) -- Read from C cache (2 bytes @ 0x08004E5A) - Data: 98 B0  returns 0x02 (0001ms, 9820ms total)
T31AC 1025:467 JLINK_SetBPEx(Addr = 0x0800501E, Type = 0xFFFFFFF2)  returns 0x00000003 (0000ms, 9820ms total)
T31AC 1025:467 JLINK_Go() -- CPU_WriteMem(4 bytes @ 0xE0002000) -- CPU_ReadMem(4 bytes @ 0xE0001000) -- CPU_WriteMem(4 bytes @ 0xE0001000) -- CPU_WriteMem(4 bytes @ 0xE0002008) -- CPU_WriteMem(4 bytes @ 0xE000200C) (0004ms, 9824ms total)
T31AC 1025:572 JLINK_IsHalted()  returns FALSE (0000ms, 9824ms total)
T31AC 1025:673 JLINK_IsHalted()  returns FALSE (0000ms, 9824ms total)
T31AC 1025:774 JLINK_IsHalted()  returns FALSE (0001ms, 9825ms total)
T31AC 1025:876 JLINK_IsHalted()  returns FALSE (0000ms, 9824ms total)
T31AC 1025:977 JLINK_IsHalted()  returns FALSE (0000ms, 9824ms total)
T37D0 1026:078 JLINK_ReadMemEx(0x2000021C, 0x0020 Bytes, ..., Flags = 0x02000000) -- CPU_ReadMem(32 bytes @ 0x2000021C) - Data: 00 00 00 00 00 00 00 00 00 00 00 00 00 00 00 00 ...  returns 0x20 (0001ms, 9825ms total)
T37D0 1026:081 JLINK_ReadMemEx(0x40012400, 0x0014 Bytes, ..., Flags = 0x02000004) -- CPU_ReadMem(20 bytes @ 0x40012400) - Data: 00 00 00 00 00 00 00 00 00 00 00 00 C2 14 01 00 ...  returns 0x14 (0001ms, 9826ms total)
T37D0 1026:082 JLINK_ReadMemEx(0x40012414, 0x0004 Bytes, ..., Flags = 0x02000004) -- CPU_ReadMem(4 bytes @ 0x40012414) - Data: 01 00 00 00  returns 0x04 (0001ms, 9827ms total)
T37D0 1026:083 JLINK_ReadMemEx(0x40012420, 0x0004 Bytes, ..., Flags = 0x02000004) -- CPU_ReadMem(4 bytes @ 0x40012420) - Data: 00 00 FF 0F  returns 0x04 (0001ms, 9828ms total)
T37D0 1026:084 JLINK_ReadMemEx(0x40012428, 0x0004 Bytes, ..., Flags = 0x02000004) -- CPU_ReadMem(4 bytes @ 0x40012428) - Data: 03 00 00 00  returns 0x04 (0001ms, 9829ms total)
T37D0 1026:085 JLINK_ReadMemEx(0x40012440, 0x0004 Bytes, ..., Flags = 0x02000004) -- CPU_ReadMem(4 bytes @ 0x40012440) - Data: 00 00 00 00  returns 0x04 (0001ms, 9830ms total)
T37D0 1026:086 JLINK_ReadMemEx(0x40012708, 0x0004 Bytes, ..., Flags = 0x02000004) -- CPU_ReadMem(4 bytes @ 0x40012708) - Data: 00 00 00 00  returns 0x04 (0001ms, 9831ms total)
T37D0 1026:088 JLINK_ReadMemEx(0x40000400, 0x0010 Bytes, ..., Flags = 0x02000004) -- CPU_ReadMem(16 bytes @ 0x40000400) - Data: 01 00 00 00 20 00 00 00 00 00 00 00 00 00 00 00  returns 0x10 (0001ms, 9832ms total)
T37D0 1026:089 JLINK_ReadMemEx(0x40000410, 0x0004 Bytes, ..., Flags = 0x02000004) -- CPU_ReadMem(4 bytes @ 0x40000410) - Data: 1F 00 00 00  returns 0x04 (0001ms, 9833ms total)
T37D0 1026:090 JLINK_ReadMemEx(0x40000418, 0x0014 Bytes, ..., Flags = 0x02000004) -- CPU_ReadMem(20 bytes @ 0x40000418) - Data: 00 00 00 00 00 00 00 00 00 00 00 00 11 00 00 00 ...  returns 0x14 (0001ms, 9834ms total)
T37D0 1026:091 JLINK_ReadMemEx(0x4000042C, 0x0004 Bytes, ..., Flags = 0x02000004) -- CPU_ReadMem(4 bytes @ 0x4000042C) - Data: 17 00 00 00  returns 0x04 (0001ms, 9835ms total)
T37D0 1026:092 JLINK_ReadMemEx(0x40000434, 0x000C Bytes, ..., Flags = 0x02000004) -- CPU_ReadMem(12 bytes @ 0x40000434) - Data: 00 00 00 00 00 00 00 00 00 00 00 00  returns 0x0C (0001ms, 9836ms total)
T37D0 1026:093 JLINK_ReadMemEx(0x40000440, 0x0004 Bytes, ..., Flags = 0x02000004) -- CPU_ReadMem(4 bytes @ 0x40000440) - Data: 00 00 00 00  returns 0x04 (0000ms, 9836ms total)
T37D0 1026:094 JLINK_ReadMemEx(0x40000448, 0x0004 Bytes, ..., Flags = 0x02000004) -- CPU_ReadMem(4 bytes @ 0x40000448) - Data: 00 00 00 00  returns 0x04 (0000ms, 9836ms total)
T37D0 1026:094 JLINK_ReadMemEx(0x4000044C, 0x0004 Bytes, ..., Flags = 0x02000004) -- CPU_ReadMem(4 bytes @ 0x4000044C) - Data: 01 00 00 00  returns 0x04 (0001ms, 9837ms total)
T31AC 1026:121 JLINK_IsHalted()  returns FALSE (0001ms, 9838ms total)
T31AC 1026:223 JLINK_IsHalted()  returns FALSE (0000ms, 9837ms total)
T31AC 1026:324 JLINK_IsHalted()  returns FALSE (0000ms, 9837ms total)
T31AC 1026:425 JLINK_IsHalted()  returns FALSE (0000ms, 9837ms total)
T31AC 1026:526 JLINK_IsHalted()  returns FALSE (0001ms, 9838ms total)
T37D0 1026:628 JLINK_ReadMemEx(0x2000021C, 0x0020 Bytes, ..., Flags = 0x02000000) -- CPU_ReadMem(32 bytes @ 0x2000021C) - Data: 00 00 00 00 00 00 00 00 00 00 00 00 00 00 00 00 ...  returns 0x20 (0001ms, 9838ms total)
T37D0 1026:630 JLINK_ReadMemEx(0x40012400, 0x0014 Bytes, ..., Flags = 0x02000004) -- CPU_ReadMem(20 bytes @ 0x40012400) - Data: 00 00 00 00 00 00 00 00 00 00 00 00 C2 14 01 00 ...  returns 0x14 (0001ms, 9839ms total)
T37D0 1026:631 JLINK_ReadMemEx(0x40012414, 0x0004 Bytes, ..., Flags = 0x02000004) -- CPU_ReadMem(4 bytes @ 0x40012414) - Data: 01 00 00 00  returns 0x04 (0001ms, 9840ms total)
T37D0 1026:632 JLINK_ReadMemEx(0x40012420, 0x0004 Bytes, ..., Flags = 0x02000004) -- CPU_ReadMem(4 bytes @ 0x40012420) - Data: 00 00 FF 0F  returns 0x04 (0000ms, 9840ms total)
T37D0 1026:632 JLINK_ReadMemEx(0x40012428, 0x0004 Bytes, ..., Flags = 0x02000004) -- CPU_ReadMem(4 bytes @ 0x40012428) - Data: 03 00 00 00  returns 0x04 (0001ms, 9841ms total)
T37D0 1026:633 JLINK_ReadMemEx(0x40012440, 0x0004 Bytes, ..., Flags = 0x02000004) -- CPU_ReadMem(4 bytes @ 0x40012440) - Data: 00 00 00 00  returns 0x04 (0001ms, 9842ms total)
T37D0 1026:634 JLINK_ReadMemEx(0x40012708, 0x0004 Bytes, ..., Flags = 0x02000004) -- CPU_ReadMem(4 bytes @ 0x40012708) - Data: 00 00 00 00  returns 0x04 (0000ms, 9842ms total)
T37D0 1026:635 JLINK_ReadMemEx(0x40000400, 0x0010 Bytes, ..., Flags = 0x02000004) -- CPU_ReadMem(16 bytes @ 0x40000400) - Data: 01 00 00 00 20 00 00 00 00 00 00 00 00 00 00 00  returns 0x10 (0000ms, 9842ms total)
T37D0 1026:635 JLINK_ReadMemEx(0x40000410, 0x0004 Bytes, ..., Flags = 0x02000004) -- CPU_ReadMem(4 bytes @ 0x40000410) - Data: 1F 00 00 00  returns 0x04 (0001ms, 9843ms total)
T37D0 1026:636 JLINK_ReadMemEx(0x40000418, 0x0014 Bytes, ..., Flags = 0x02000004) -- CPU_ReadMem(20 bytes @ 0x40000418) - Data: 00 00 00 00 00 00 00 00 00 00 00 00 07 00 00 00 ...  returns 0x14 (0001ms, 9844ms total)
T37D0 1026:637 JLINK_ReadMemEx(0x4000042C, 0x0004 Bytes, ..., Flags = 0x02000004) -- CPU_ReadMem(4 bytes @ 0x4000042C) - Data: 17 00 00 00  returns 0x04 (0000ms, 9844ms total)
T37D0 1026:637 JLINK_ReadMemEx(0x40000434, 0x000C Bytes, ..., Flags = 0x02000004) -- CPU_ReadMem(12 bytes @ 0x40000434) - Data: 00 00 00 00 00 00 00 00 00 00 00 00  returns 0x0C (0001ms, 9845ms total)
T37D0 1026:638 JLINK_ReadMemEx(0x40000440, 0x0004 Bytes, ..., Flags = 0x02000004) -- CPU_ReadMem(4 bytes @ 0x40000440) - Data: 00 00 00 00  returns 0x04 (0001ms, 9846ms total)
T37D0 1026:639 JLINK_ReadMemEx(0x40000448, 0x0004 Bytes, ..., Flags = 0x02000004) -- CPU_ReadMem(4 bytes @ 0x40000448) - Data: 00 00 00 00  returns 0x04 (0000ms, 9846ms total)
T37D0 1026:639 JLINK_ReadMemEx(0x4000044C, 0x0004 Bytes, ..., Flags = 0x02000004) -- CPU_ReadMem(4 bytes @ 0x4000044C) - Data: 01 00 00 00  returns 0x04 (0001ms, 9847ms total)
T31AC 1026:645 JLINK_IsHalted()  returns FALSE (0000ms, 9847ms total)
T31AC 1026:746 JLINK_IsHalted()  returns FALSE (0000ms, 9847ms total)
T31AC 1026:848 JLINK_IsHalted()  returns FALSE (0000ms, 9847ms total)
T31AC 1026:949 JLINK_IsHalted()  returns FALSE (0000ms, 9847ms total)
T31AC 1027:050 JLINK_IsHalted()  returns FALSE (0000ms, 9847ms total)
T37D0 1027:151 JLINK_ReadMemEx(0x2000021C, 0x0020 Bytes, ..., Flags = 0x02000000) -- CPU_ReadMem(32 bytes @ 0x2000021C) - Data: 00 00 00 00 00 00 00 00 00 00 00 00 00 00 00 00 ...  returns 0x20 (0001ms, 9848ms total)
T37D0 1027:155 JLINK_ReadMemEx(0x40012400, 0x0014 Bytes, ..., Flags = 0x02000004) -- CPU_ReadMem(20 bytes @ 0x40012400) - Data: 00 00 00 00 00 00 00 00 00 00 00 00 C2 14 01 00 ...  returns 0x14 (0001ms, 9849ms total)
T37D0 1027:156 JLINK_ReadMemEx(0x40012414, 0x0004 Bytes, ..., Flags = 0x02000004) -- CPU_ReadMem(4 bytes @ 0x40012414) - Data: 01 00 00 00  returns 0x04 (0001ms, 9850ms total)
T37D0 1027:157 JLINK_ReadMemEx(0x40012420, 0x0004 Bytes, ..., Flags = 0x02000004) -- CPU_ReadMem(4 bytes @ 0x40012420) - Data: 00 00 FF 0F  returns 0x04 (0001ms, 9851ms total)
T37D0 1027:158 JLINK_ReadMemEx(0x40012428, 0x0004 Bytes, ..., Flags = 0x02000004) -- CPU_ReadMem(4 bytes @ 0x40012428) - Data: 03 00 00 00  returns 0x04 (0000ms, 9851ms total)
T37D0 1027:158 JLINK_ReadMemEx(0x40012440, 0x0004 Bytes, ..., Flags = 0x02000004) -- CPU_ReadMem(4 bytes @ 0x40012440) - Data: 00 00 00 00  returns 0x04 (0001ms, 9852ms total)
T37D0 1027:159 JLINK_ReadMemEx(0x40012708, 0x0004 Bytes, ..., Flags = 0x02000004) -- CPU_ReadMem(4 bytes @ 0x40012708) - Data: 00 00 00 00  returns 0x04 (0001ms, 9853ms total)
T37D0 1027:160 JLINK_ReadMemEx(0x40000400, 0x0010 Bytes, ..., Flags = 0x02000004) -- CPU_ReadMem(16 bytes @ 0x40000400) - Data: 01 00 00 00 20 00 00 00 00 00 00 00 00 00 00 00  returns 0x10 (0001ms, 9854ms total)
T37D0 1027:161 JLINK_ReadMemEx(0x40000410, 0x0004 Bytes, ..., Flags = 0x02000004) -- CPU_ReadMem(4 bytes @ 0x40000410) - Data: 1F 00 00 00  returns 0x04 (0001ms, 9855ms total)
T37D0 1027:162 JLINK_ReadMemEx(0x40000418, 0x0014 Bytes, ..., Flags = 0x02000004) -- CPU_ReadMem(20 bytes @ 0x40000418) - Data: 00 00 00 00 00 00 00 00 00 00 00 00 05 00 00 00 ...  returns 0x14 (0001ms, 9856ms total)
T37D0 1027:163 JLINK_ReadMemEx(0x4000042C, 0x0004 Bytes, ..., Flags = 0x02000004) -- CPU_ReadMem(4 bytes @ 0x4000042C) - Data: 17 00 00 00  returns 0x04 (0001ms, 9857ms total)
T37D0 1027:164 JLINK_ReadMemEx(0x40000434, 0x000C Bytes, ..., Flags = 0x02000004) -- CPU_ReadMem(12 bytes @ 0x40000434) - Data: 00 00 00 00 00 00 00 00 00 00 00 00  returns 0x0C (0001ms, 9858ms total)
T37D0 1027:165 JLINK_ReadMemEx(0x40000440, 0x0004 Bytes, ..., Flags = 0x02000004) -- CPU_ReadMem(4 bytes @ 0x40000440) - Data: 00 00 00 00  returns 0x04 (0001ms, 9859ms total)
T37D0 1027:166 JLINK_ReadMemEx(0x40000448, 0x0004 Bytes, ..., Flags = 0x02000004) -- CPU_ReadMem(4 bytes @ 0x40000448) - Data: 00 00 00 00  returns 0x04 (0000ms, 9859ms total)
T37D0 1027:166 JLINK_ReadMemEx(0x4000044C, 0x0004 Bytes, ..., Flags = 0x02000004) -- CPU_ReadMem(4 bytes @ 0x4000044C) - Data: 01 00 00 00  returns 0x04 (0001ms, 9860ms total)
T31AC 1027:176 JLINK_IsHalted()  returns FALSE (0000ms, 9860ms total)
T31AC 1027:277 JLINK_IsHalted()  returns FALSE (0000ms, 9860ms total)
T31AC 1027:378 JLINK_IsHalted()  returns FALSE (0000ms, 9860ms total)
T31AC 1027:479 JLINK_IsHalted()  returns FALSE (0001ms, 9861ms total)
T31AC 1027:581 JLINK_IsHalted()  returns FALSE (0001ms, 9861ms total)
T37D0 1027:683 JLINK_ReadMemEx(0x2000021C, 0x0020 Bytes, ..., Flags = 0x02000000) -- CPU_ReadMem(32 bytes @ 0x2000021C) - Data: 00 00 00 00 00 00 00 00 00 00 00 00 00 00 00 00 ...  returns 0x20 (0001ms, 9861ms total)
T37D0 1027:686 JLINK_ReadMemEx(0x40012400, 0x0014 Bytes, ..., Flags = 0x02000004) -- CPU_ReadMem(20 bytes @ 0x40012400) - Data: 00 00 00 00 00 00 00 00 00 00 00 00 C2 14 01 00 ...  returns 0x14 (0001ms, 9862ms total)
T37D0 1027:687 JLINK_ReadMemEx(0x40012414, 0x0004 Bytes, ..., Flags = 0x02000004) -- CPU_ReadMem(4 bytes @ 0x40012414) - Data: 01 00 00 00  returns 0x04 (0001ms, 9863ms total)
T37D0 1027:688 JLINK_ReadMemEx(0x40012420, 0x0004 Bytes, ..., Flags = 0x02000004) -- CPU_ReadMem(4 bytes @ 0x40012420) - Data: 00 00 FF 0F  returns 0x04 (0000ms, 9863ms total)
T37D0 1027:688 JLINK_ReadMemEx(0x40012428, 0x0004 Bytes, ..., Flags = 0x02000004) -- CPU_ReadMem(4 bytes @ 0x40012428) - Data: 03 00 00 00  returns 0x04 (0001ms, 9864ms total)
T37D0 1027:689 JLINK_ReadMemEx(0x40012440, 0x0004 Bytes, ..., Flags = 0x02000004) -- CPU_ReadMem(4 bytes @ 0x40012440) - Data: 00 00 00 00  returns 0x04 (0001ms, 9865ms total)
T37D0 1027:690 JLINK_ReadMemEx(0x40012708, 0x0004 Bytes, ..., Flags = 0x02000004) -- CPU_ReadMem(4 bytes @ 0x40012708) - Data: 00 00 00 00  returns 0x04 (0001ms, 9866ms total)
T37D0 1027:692 JLINK_ReadMemEx(0x40000400, 0x0010 Bytes, ..., Flags = 0x02000004) -- CPU_ReadMem(16 bytes @ 0x40000400) - Data: 01 00 00 00 20 00 00 00 00 00 00 00 00 00 00 00  returns 0x10 (0000ms, 9866ms total)
T37D0 1027:693 JLINK_ReadMemEx(0x40000410, 0x0004 Bytes, ..., Flags = 0x02000004) -- CPU_ReadMem(4 bytes @ 0x40000410) - Data: 1F 00 00 00  returns 0x04 (0001ms, 9867ms total)
T37D0 1027:694 JLINK_ReadMemEx(0x40000418, 0x0014 Bytes, ..., Flags = 0x02000004) -- CPU_ReadMem(20 bytes @ 0x40000418) - Data: 00 00 00 00 00 00 00 00 00 00 00 00 0A 00 00 00 ...  returns 0x14 (0001ms, 9868ms total)
T37D0 1027:695 JLINK_ReadMemEx(0x4000042C, 0x0004 Bytes, ..., Flags = 0x02000004) -- CPU_ReadMem(4 bytes @ 0x4000042C) - Data: 17 00 00 00  returns 0x04 (0000ms, 9868ms total)
T37D0 1027:695 JLINK_ReadMemEx(0x40000434, 0x000C Bytes, ..., Flags = 0x02000004) -- CPU_ReadMem(12 bytes @ 0x40000434) - Data: 00 00 00 00 00 00 00 00 00 00 00 00  returns 0x0C (0001ms, 9869ms total)
T37D0 1027:696 JLINK_ReadMemEx(0x40000440, 0x0004 Bytes, ..., Flags = 0x02000004) -- CPU_ReadMem(4 bytes @ 0x40000440) - Data: 00 00 00 00  returns 0x04 (0001ms, 9870ms total)
T37D0 1027:697 JLINK_ReadMemEx(0x40000448, 0x0004 Bytes, ..., Flags = 0x02000004) -- CPU_ReadMem(4 bytes @ 0x40000448) - Data: 00 00 00 00  returns 0x04 (0001ms, 9871ms total)
T37D0 1027:698 JLINK_ReadMemEx(0x4000044C, 0x0004 Bytes, ..., Flags = 0x02000004) -- CPU_ReadMem(4 bytes @ 0x4000044C) - Data: 01 00 00 00  returns 0x04 (0001ms, 9872ms total)
T31AC 1027:704 JLINK_IsHalted()  returns FALSE (0001ms, 9873ms total)
T31AC 1027:806 JLINK_IsHalted()  returns FALSE (0000ms, 9872ms total)
T31AC 1027:907 JLINK_IsHalted()  returns FALSE (0000ms, 9872ms total)
T31AC 1028:008 JLINK_IsHalted()  returns FALSE (0000ms, 9872ms total)
T31AC 1028:109 JLINK_IsHalted()  returns FALSE (0000ms, 9872ms total)
T37D0 1028:210 JLINK_ReadMemEx(0x2000021C, 0x0020 Bytes, ..., Flags = 0x02000000) -- CPU_ReadMem(32 bytes @ 0x2000021C) - Data: 00 00 00 00 00 00 00 00 00 00 00 00 00 00 00 00 ...  returns 0x20 (0001ms, 9873ms total)
T37D0 1028:212 JLINK_ReadMemEx(0x40012400, 0x0014 Bytes, ..., Flags = 0x02000004) -- CPU_ReadMem(20 bytes @ 0x40012400) - Data: 00 00 00 00 00 00 00 00 00 00 00 00 C2 14 01 00 ...  returns 0x14 (0001ms, 9874ms total)
T37D0 1028:213 JLINK_ReadMemEx(0x40012414, 0x0004 Bytes, ..., Flags = 0x02000004) -- CPU_ReadMem(4 bytes @ 0x40012414) - Data: 01 00 00 00  returns 0x04 (0000ms, 9874ms total)
T37D0 1028:213 JLINK_ReadMemEx(0x40012420, 0x0004 Bytes, ..., Flags = 0x02000004) -- CPU_ReadMem(4 bytes @ 0x40012420) - Data: 00 00 FF 0F  returns 0x04 (0001ms, 9875ms total)
T37D0 1028:214 JLINK_ReadMemEx(0x40012428, 0x0004 Bytes, ..., Flags = 0x02000004) -- CPU_ReadMem(4 bytes @ 0x40012428) - Data: 03 00 00 00  returns 0x04 (0001ms, 9876ms total)
T37D0 1028:215 JLINK_ReadMemEx(0x40012440, 0x0004 Bytes, ..., Flags = 0x02000004) -- CPU_ReadMem(4 bytes @ 0x40012440) - Data: 00 00 00 00  returns 0x04 (0000ms, 9876ms total)
T37D0 1028:215 JLINK_ReadMemEx(0x40012708, 0x0004 Bytes, ..., Flags = 0x02000004) -- CPU_ReadMem(4 bytes @ 0x40012708) - Data: 00 00 00 00  returns 0x04 (0001ms, 9877ms total)
T37D0 1028:216 JLINK_ReadMemEx(0x40000400, 0x0010 Bytes, ..., Flags = 0x02000004) -- CPU_ReadMem(16 bytes @ 0x40000400) - Data: 01 00 00 00 20 00 00 00 00 00 00 00 00 00 00 00  returns 0x10 (0001ms, 9878ms total)
T37D0 1028:217 JLINK_ReadMemEx(0x40000410, 0x0004 Bytes, ..., Flags = 0x02000004) -- CPU_ReadMem(4 bytes @ 0x40000410) - Data: 1F 00 00 00  returns 0x04 (0000ms, 9878ms total)
T37D0 1028:217 JLINK_ReadMemEx(0x40000418, 0x0014 Bytes, ..., Flags = 0x02000004) -- CPU_ReadMem(20 bytes @ 0x40000418) - Data: 00 00 00 00 00 00 00 00 00 00 00 00 04 00 00 00 ...  returns 0x14 (0001ms, 9879ms total)
T37D0 1028:218 JLINK_ReadMemEx(0x4000042C, 0x0004 Bytes, ..., Flags = 0x02000004) -- CPU_ReadMem(4 bytes @ 0x4000042C) - Data: 17 00 00 00  returns 0x04 (0001ms, 9880ms total)
T37D0 1028:219 JLINK_ReadMemEx(0x40000434, 0x000C Bytes, ..., Flags = 0x02000004) -- CPU_ReadMem(12 bytes @ 0x40000434) - Data: 00 00 00 00 00 00 00 00 00 00 00 00  returns 0x0C (0000ms, 9880ms total)
T37D0 1028:219 JLINK_ReadMemEx(0x40000440, 0x0004 Bytes, ..., Flags = 0x02000004) -- CPU_ReadMem(4 bytes @ 0x40000440) - Data: 00 00 00 00  returns 0x04 (0001ms, 9881ms total)
T37D0 1028:220 JLINK_ReadMemEx(0x40000448, 0x0004 Bytes, ..., Flags = 0x02000004) -- CPU_ReadMem(4 bytes @ 0x40000448) - Data: 00 00 00 00  returns 0x04 (0001ms, 9882ms total)
T37D0 1028:221 JLINK_ReadMemEx(0x4000044C, 0x0004 Bytes, ..., Flags = 0x02000004) -- CPU_ReadMem(4 bytes @ 0x4000044C) - Data: 01 00 00 00  returns 0x04 (0000ms, 9882ms total)
T31AC 1028:226 JLINK_IsHalted()  returns FALSE (0001ms, 9883ms total)
T31AC 1028:328 JLINK_IsHalted()  returns FALSE (0000ms, 9882ms total)
T31AC 1028:429 JLINK_IsHalted()  returns FALSE (0000ms, 9882ms total)
T31AC 1028:530 JLINK_IsHalted()  returns FALSE (0000ms, 9882ms total)
T31AC 1028:631 JLINK_IsHalted()  returns FALSE (0000ms, 9882ms total)
T37D0 1028:733 JLINK_ReadMemEx(0x2000021C, 0x0020 Bytes, ..., Flags = 0x02000000) -- CPU_ReadMem(32 bytes @ 0x2000021C) - Data: 00 00 00 00 00 00 00 00 00 00 00 00 00 00 00 00 ...  returns 0x20 (0001ms, 9883ms total)
T37D0 1028:737 JLINK_ReadMemEx(0x40012400, 0x0014 Bytes, ..., Flags = 0x02000004) -- CPU_ReadMem(20 bytes @ 0x40012400) - Data: 00 00 00 00 00 00 00 00 00 00 00 00 C2 14 01 00 ...  returns 0x14 (0001ms, 9884ms total)
T37D0 1028:738 JLINK_ReadMemEx(0x40012414, 0x0004 Bytes, ..., Flags = 0x02000004) -- CPU_ReadMem(4 bytes @ 0x40012414) - Data: 01 00 00 00  returns 0x04 (0001ms, 9885ms total)
T37D0 1028:739 JLINK_ReadMemEx(0x40012420, 0x0004 Bytes, ..., Flags = 0x02000004) -- CPU_ReadMem(4 bytes @ 0x40012420) - Data: 00 00 FF 0F  returns 0x04 (0000ms, 9885ms total)
T37D0 1028:739 JLINK_ReadMemEx(0x40012428, 0x0004 Bytes, ..., Flags = 0x02000004) -- CPU_ReadMem(4 bytes @ 0x40012428) - Data: 03 00 00 00  returns 0x04 (0001ms, 9886ms total)
T37D0 1028:740 JLINK_ReadMemEx(0x40012440, 0x0004 Bytes, ..., Flags = 0x02000004) -- CPU_ReadMem(4 bytes @ 0x40012440) - Data: 00 00 00 00  returns 0x04 (0001ms, 9887ms total)
T37D0 1028:741 JLINK_ReadMemEx(0x40012708, 0x0004 Bytes, ..., Flags = 0x02000004) -- CPU_ReadMem(4 bytes @ 0x40012708) - Data: 00 00 00 00  returns 0x04 (0001ms, 9888ms total)
T37D0 1028:743 JLINK_ReadMemEx(0x40000400, 0x0010 Bytes, ..., Flags = 0x02000004) -- CPU_ReadMem(16 bytes @ 0x40000400) - Data: 01 00 00 00 20 00 00 00 00 00 00 00 00 00 00 00  returns 0x10 (0001ms, 9889ms total)
T37D0 1028:744 JLINK_ReadMemEx(0x40000410, 0x0004 Bytes, ..., Flags = 0x02000004) -- CPU_ReadMem(4 bytes @ 0x40000410) - Data: 1F 00 00 00  returns 0x04 (0001ms, 9890ms total)
T37D0 1028:745 JLINK_ReadMemEx(0x40000418, 0x0014 Bytes, ..., Flags = 0x02000004) -- CPU_ReadMem(20 bytes @ 0x40000418) - Data: 00 00 00 00 00 00 00 00 00 00 00 00 04 00 00 00 ...  returns 0x14 (0001ms, 9891ms total)
T37D0 1028:746 JLINK_ReadMemEx(0x4000042C, 0x0004 Bytes, ..., Flags = 0x02000004) -- CPU_ReadMem(4 bytes @ 0x4000042C) - Data: 17 00 00 00  returns 0x04 (0000ms, 9891ms total)
T37D0 1028:746 JLINK_ReadMemEx(0x40000434, 0x000C Bytes, ..., Flags = 0x02000004) -- CPU_ReadMem(12 bytes @ 0x40000434) - Data: 00 00 00 00 00 00 00 00 00 00 00 00  returns 0x0C (0001ms, 9892ms total)
T37D0 1028:747 JLINK_ReadMemEx(0x40000440, 0x0004 Bytes, ..., Flags = 0x02000004) -- CPU_ReadMem(4 bytes @ 0x40000440) - Data: 00 00 00 00  returns 0x04 (0000ms, 9892ms total)
T37D0 1028:747 JLINK_ReadMemEx(0x40000448, 0x0004 Bytes, ..., Flags = 0x02000004) -- CPU_ReadMem(4 bytes @ 0x40000448) - Data: 00 00 00 00  returns 0x04 (0001ms, 9893ms total)
T37D0 1028:748 JLINK_ReadMemEx(0x4000044C, 0x0004 Bytes, ..., Flags = 0x02000004) -- CPU_ReadMem(4 bytes @ 0x4000044C) - Data: 01 00 00 00  returns 0x04 (0001ms, 9894ms total)
T31AC 1028:750 JLINK_IsHalted()  returns FALSE (0000ms, 9894ms total)
T31AC 1028:851 JLINK_IsHalted()  returns FALSE (0000ms, 9894ms total)
T31AC 1028:952 JLINK_IsHalted()  returns FALSE (0000ms, 9894ms total)
T31AC 1029:053 JLINK_IsHalted()  returns FALSE (0000ms, 9894ms total)
T31AC 1029:154 JLINK_IsHalted()  returns FALSE (0001ms, 9895ms total)
T37D0 1029:256 JLINK_ReadMemEx(0x2000021C, 0x0020 Bytes, ..., Flags = 0x02000000) -- CPU_ReadMem(32 bytes @ 0x2000021C) - Data: 00 00 00 00 00 00 00 00 00 00 00 00 00 00 00 00 ...  returns 0x20 (0001ms, 9895ms total)
T37D0 1029:259 JLINK_ReadMemEx(0x40012400, 0x0014 Bytes, ..., Flags = 0x02000004) -- CPU_ReadMem(20 bytes @ 0x40012400) - Data: 00 00 00 00 00 00 00 00 00 00 00 00 C2 14 01 00 ...  returns 0x14 (0001ms, 9896ms total)
T37D0 1029:260 JLINK_ReadMemEx(0x40012414, 0x0004 Bytes, ..., Flags = 0x02000004) -- CPU_ReadMem(4 bytes @ 0x40012414) - Data: 01 00 00 00  returns 0x04 (0000ms, 9896ms total)
T37D0 1029:260 JLINK_ReadMemEx(0x40012420, 0x0004 Bytes, ..., Flags = 0x02000004) -- CPU_ReadMem(4 bytes @ 0x40012420) - Data: 00 00 FF 0F  returns 0x04 (0001ms, 9897ms total)
T37D0 1029:261 JLINK_ReadMemEx(0x40012428, 0x0004 Bytes, ..., Flags = 0x02000004) -- CPU_ReadMem(4 bytes @ 0x40012428) - Data: 03 00 00 00  returns 0x04 (0001ms, 9898ms total)
T37D0 1029:262 JLINK_ReadMemEx(0x40012440, 0x0004 Bytes, ..., Flags = 0x02000004) -- CPU_ReadMem(4 bytes @ 0x40012440) - Data: 00 00 00 00  returns 0x04 (0001ms, 9899ms total)
T37D0 1029:263 JLINK_ReadMemEx(0x40012708, 0x0004 Bytes, ..., Flags = 0x02000004) -- CPU_ReadMem(4 bytes @ 0x40012708) - Data: 00 00 00 00  returns 0x04 (0000ms, 9899ms total)
T37D0 1029:264 JLINK_ReadMemEx(0x40000400, 0x0010 Bytes, ..., Flags = 0x02000004) -- CPU_ReadMem(16 bytes @ 0x40000400) - Data: 01 00 00 00 20 00 00 00 00 00 00 00 00 00 00 00  returns 0x10 (0001ms, 9900ms total)
T37D0 1029:265 JLINK_ReadMemEx(0x40000410, 0x0004 Bytes, ..., Flags = 0x02000004) -- CPU_ReadMem(4 bytes @ 0x40000410) - Data: 1F 00 00 00  returns 0x04 (0001ms, 9901ms total)
T37D0 1029:266 JLINK_ReadMemEx(0x40000418, 0x0014 Bytes, ..., Flags = 0x02000004) -- CPU_ReadMem(20 bytes @ 0x40000418) - Data: 00 00 00 00 00 00 00 00 00 00 00 00 07 00 00 00 ...  returns 0x14 (0001ms, 9902ms total)
T37D0 1029:267 JLINK_ReadMemEx(0x4000042C, 0x0004 Bytes, ..., Flags = 0x02000004) -- CPU_ReadMem(4 bytes @ 0x4000042C) - Data: 17 00 00 00  returns 0x04 (0001ms, 9903ms total)
T37D0 1029:268 JLINK_ReadMemEx(0x40000434, 0x000C Bytes, ..., Flags = 0x02000004) -- CPU_ReadMem(12 bytes @ 0x40000434) - Data: 00 00 00 00 00 00 00 00 00 00 00 00  returns 0x0C (0000ms, 9903ms total)
T37D0 1029:268 JLINK_ReadMemEx(0x40000440, 0x0004 Bytes, ..., Flags = 0x02000004) -- CPU_ReadMem(4 bytes @ 0x40000440) - Data: 00 00 00 00  returns 0x04 (0002ms, 9905ms total)
T37D0 1029:270 JLINK_ReadMemEx(0x40000448, 0x0004 Bytes, ..., Flags = 0x02000004) -- CPU_ReadMem(4 bytes @ 0x40000448) - Data: 00 00 00 00  returns 0x04 (0000ms, 9905ms total)
T37D0 1029:270 JLINK_ReadMemEx(0x4000044C, 0x0004 Bytes, ..., Flags = 0x02000004) -- CPU_ReadMem(4 bytes @ 0x4000044C) - Data: 01 00 00 00  returns 0x04 (0001ms, 9906ms total)
T31AC 1029:280 JLINK_IsHalted()  returns FALSE (0001ms, 9907ms total)
T31AC 1029:381 JLINK_IsHalted()  returns FALSE (0000ms, 9906ms total)
T31AC 1029:483 JLINK_IsHalted()  returns FALSE (0000ms, 9906ms total)
T31AC 1029:584 JLINK_IsHalted()  returns FALSE (0000ms, 9906ms total)
T31AC 1029:686 JLINK_IsHalted()  returns FALSE (0000ms, 9906ms total)
T37D0 1029:787 JLINK_ReadMemEx(0x2000021C, 0x0020 Bytes, ..., Flags = 0x02000000) -- CPU_ReadMem(32 bytes @ 0x2000021C) - Data: 00 00 00 00 00 00 00 00 00 00 00 00 00 00 00 00 ...  returns 0x20 (0001ms, 9907ms total)
T37D0 1029:790 JLINK_ReadMemEx(0x40012400, 0x0014 Bytes, ..., Flags = 0x02000004) -- CPU_ReadMem(20 bytes @ 0x40012400) - Data: 00 00 00 00 00 00 00 00 00 00 00 00 C2 14 01 00 ...  returns 0x14 (0002ms, 9909ms total)
T37D0 1029:792 JLINK_ReadMemEx(0x40012414, 0x0004 Bytes, ..., Flags = 0x02000004) -- CPU_ReadMem(4 bytes @ 0x40012414) - Data: 01 00 00 00  returns 0x04 (0000ms, 9909ms total)
T37D0 1029:792 JLINK_ReadMemEx(0x40012420, 0x0004 Bytes, ..., Flags = 0x02000004) -- CPU_ReadMem(4 bytes @ 0x40012420) - Data: 00 00 FF 0F  returns 0x04 (0001ms, 9910ms total)
T37D0 1029:793 JLINK_ReadMemEx(0x40012428, 0x0004 Bytes, ..., Flags = 0x02000004) -- CPU_ReadMem(4 bytes @ 0x40012428) - Data: 03 00 00 00  returns 0x04 (0001ms, 9911ms total)
T37D0 1029:794 JLINK_ReadMemEx(0x40012440, 0x0004 Bytes, ..., Flags = 0x02000004) -- CPU_ReadMem(4 bytes @ 0x40012440) - Data: 00 00 00 00  returns 0x04 (0001ms, 9912ms total)
T37D0 1029:795 JLINK_ReadMemEx(0x40012708, 0x0004 Bytes, ..., Flags = 0x02000004) -- CPU_ReadMem(4 bytes @ 0x40012708) - Data: 00 00 00 00  returns 0x04 (0001ms, 9913ms total)
T37D0 1029:796 JLINK_ReadMemEx(0x40000400, 0x0010 Bytes, ..., Flags = 0x02000004) -- CPU_ReadMem(16 bytes @ 0x40000400) - Data: 01 00 00 00 20 00 00 00 00 00 00 00 00 00 00 00  returns 0x10 (0001ms, 9914ms total)
T37D0 1029:797 JLINK_ReadMemEx(0x40000410, 0x0004 Bytes, ..., Flags = 0x02000004) -- CPU_ReadMem(4 bytes @ 0x40000410) - Data: 1F 00 00 00  returns 0x04 (0001ms, 9915ms total)
T37D0 1029:798 JLINK_ReadMemEx(0x40000418, 0x0014 Bytes, ..., Flags = 0x02000004) -- CPU_ReadMem(20 bytes @ 0x40000418) - Data: 00 00 00 00 00 00 00 00 00 00 00 00 15 00 00 00 ...  returns 0x14 (0001ms, 9916ms total)
T37D0 1029:799 JLINK_ReadMemEx(0x4000042C, 0x0004 Bytes, ..., Flags = 0x02000004) -- CPU_ReadMem(4 bytes @ 0x4000042C) - Data: 17 00 00 00  returns 0x04 (0001ms, 9917ms total)
T37D0 1029:800 JLINK_ReadMemEx(0x40000434, 0x000C Bytes, ..., Flags = 0x02000004) -- CPU_ReadMem(12 bytes @ 0x40000434) - Data: 00 00 00 00 00 00 00 00 00 00 00 00  returns 0x0C (0000ms, 9917ms total)
T37D0 1029:800 JLINK_ReadMemEx(0x40000440, 0x0004 Bytes, ..., Flags = 0x02000004) -- CPU_ReadMem(4 bytes @ 0x40000440) - Data: 00 00 00 00  returns 0x04 (0001ms, 9918ms total)
T37D0 1029:801 JLINK_ReadMemEx(0x40000448, 0x0004 Bytes, ..., Flags = 0x02000004) -- CPU_ReadMem(4 bytes @ 0x40000448) - Data: 00 00 00 00  returns 0x04 (0001ms, 9919ms total)
T37D0 1029:802 JLINK_ReadMemEx(0x4000044C, 0x0004 Bytes, ..., Flags = 0x02000004) -- CPU_ReadMem(4 bytes @ 0x4000044C) - Data: 01 00 00 00  returns 0x04 (0001ms, 9920ms total)
